# ZDRV.C20 - 120S2


### MODBUS-RTU 方式

    ADDR(1 Byte) - CMD(1 Byte) - DATA(n Bytes) - [CRC16_L](1Byte)+[CRC16_H](1 Bytes)

    a-地址码： 1 Byte
     0x00(0) -广播地址，广播时从机无回复，适用于多台群控
    
	0x01(1) - 0x7F(127) - 从机地址；
    0x80(128) - 0xff(255) - 系统保留，请勿使用；

    b-功能码：1B Byte
	- 0x03(3) - 读寄存器操作
    - 0x06(6) - 写单个寄存器操作
    - 0x10(16) - 写多个寄存器操作

	c-数据：n Byte
    不同指令有不同数据格式

    d-校验码：2 Byte
     CRC16 校验对象：地址码+功能码+数据；
     CRC16校验算法：MODBUS(x16+x15+x2+1)
     CRC校验码，先发送低字节，后发送高字节；


    # 正转运行 - 发送和应答数据： 
    # 01 06 20 00 00 01 43 CA 
    # 01 06 20 00 00 01 43 CA (地址2000H写0x01)

    # 反转运行 - 发送和应答数据
    # 01 06 20 00 00 02 03 CB
    # 01 06 20 00 00 02 03 CB (地址2000H写0x02)

    # 停机 - 发送和应答数据：
    # 01 06 20 00 00 05 42 09
    # 01 06 20 00 00 05 42 09

    # 故障复位 - 发送和应答数据：
    # 01 06 20 00 00 07 C3 C8
    # 01 06 20 00 00 07 C3 C8 (地址2000H写0x07)

    # 设定转速 - 发送和应答数据：
    # 01 06 20 01 0B B8 D4 88 - 01 06 20 01 0B B8 D4 88 
    # (地址 2001H写0x0BB8，设定转速 3000RPM)

    # 使功能码可写 - 发送和应答数据：
     01 06 20 0E 00 00 E3 C9 - 01 06 20 0E 00 00 E3 C9 (地址 200FH 写 0x01)

    # 读故障码 - 发送和应答数据：
    01 03 21 02 00 01 2F F6 - 01 03 02 00 0A 38 43/01 03 02 00 00 B8 44(读地址 2102H，故障码：0x0A 欠压故障)
	
	
	0x03 读寄存器数据帧格式
	
	
寄存器地址：

通讯控制命令 2000H 

通讯设定值地址 

2001H 通讯设定转速 0~3000 RPM
2003H 加速时间(1~6000)
2004H 减速时间(1~6000)
2006H 运行指令(0~4, default = 2)
2007H 速度给定 (0~5, default = 3)	
2008H 本机通讯地址 (1~127, 0 为广播地址)	

2009H 通讯波特率设置 (0~6, 1200,2400,4800,9600,19200,38400,57600)

2100H 驱动器状态字1

	0001H： 正转运行中
	0002H： 反转运行中
	0003H： 驱动器停机中
	0004H： 驱动器故障中
	0005H： 驱动器OFF状态
	0006H： 电子刹车状态
	
2101H 驱动器状态字2 
	Bit0： =0： 母线电压未建立
	=1： 母线电压建立
	Bit4： =0： 未过载
	=1： 过载
	Bit5~Bit6：
	=00： 键盘控制
	=01： 端子控制
	=10： 通讯控制
	Bit7： =0： 键盘未连接
	=1： 键盘已连接

2102H 驱动器故障代码


	
启动电机的寄存器地址	
	
 # 地址：2000H
        # 01 06 20 00 {00 01} 43 CA 
        - 00 01 - 正转
        - 00 02 - 反转
        - 00 03 - 正转点动
        - 00 04 - 反转点动
        - 00 05 - 停机
        - 00 06 - 自由停机（紧急停机）
        - 00 07 - 故障复位
        - 00 08 - 点动停止
        - 00 09 - 刹车停机
		
		
 # 2001H 通讯设定转速 
        # 3000rpm - 01 06 20 01 0B B8 D4 88 
        # 地址 2001H写0x0BB8，设定转速 3000RPM
		

电机状态寄存器地址：21 02




----

创建电机控制类

	- 初始化串口
	
	- 构建控制命令，如：打开电机、设置转速、设置电机通讯方式、正反转、运行指令、速度给定方式、读取驱动器状态、读取驱动器故障代码
	
	- 运行控制命令，读取返回； 